Circuit: * C:\users\inaciose\Documents\LTspiceXVII\ua\t4\tp4-c1-1-1-dc.asc

Direct Newton iteration for .op point succeeded.
Semiconductor Device Operating Points:
                        --- Bipolar Transistors ---
Name:       q4          q2          q3          q1
Model:    bc557c      bc557c      bc547c      bc547c
Ib:       5.38e-12   -1.89e-06    1.80e-08    1.91e-06
Ic:      -8.42e-10   -1.08e-03    9.49e-06    9.96e-04
Vbe:     -2.42e-01   -6.14e-01    4.95e-01    6.18e-01
Vbc:      9.76e+00    6.81e+00   -9.50e+00   -7.92e+00
Vce:     -1.00e+01   -7.42e+00    1.00e+01    8.54e+00
BetaDC:  -1.56e+02    5.72e+02    5.27e+02    5.21e+02
Gm:       3.18e-08    4.09e-02    3.63e-04    3.79e-02
Rpi:      7.75e+09    1.39e+04    1.46e+06    1.37e+04
Rx:       1.00e+00    1.00e+00    1.00e+00    1.00e+00
Ro:       4.19e+10    2.81e+04    6.54e+06    6.07e+04
Cbe:      1.79e-11    5.31e-11    2.43e-11    4.94e-11
Cbc:      1.32e-12    1.54e-12    9.29e-13    9.76e-13
Cjs:      0.00e+00    0.00e+00    0.00e+00    0.00e+00
BetaAC:   2.46e+02    5.70e+02    5.31e+02    5.18e+02
Cbx:      7.82e-13    9.12e-13    5.71e-13    6.00e-13
Ft:       2.52e+02    1.17e+08    2.24e+06    1.18e+08



Date: Tue Dec 02 02:41:00 2025
Total elapsed time: 0.131 seconds.

tnom = 27
temp = 27
method = trap
totiter = 7
traniter = 0
tranpoints = 0
accept = 0
rejected = 0
matrix size = 29
fillins = 14
solver = Normal
Matrix Compiler1: 2.66 KB object code size
Matrix Compiler2: 2.66 KB object code size
